#Digilent WaveForms Network Analyzer - Bode
#Device Name: Discovery2
#Serial Number: SN:210321A189D7
#Date Time: 2024-04-12 11:04:49.797
#Start: 10 Hz
#Stop: 50000 Hz
#Steps: 151
#Wavegen: Wavegen C1
#Amplification: 1 X
#Settle: 10 ms
#MinPeriods: 16 
#Channel: Channel 1
#Range: 59.9292 V
#Offset: 0.000675089 V
#Relative: no
#Channel: Channel 2
#Range: 59.9881 V
#Offset: -0.00209507 V
#Relative: yes

Frequency (Hz),Channel 1 Magnitude (dB),Channel 2 Magnitude (dB),Channel 2 Phase (deg)
10,0.009326923253444197,18.53494752075472,-0.4796317096513061
10.58424294923851,-0.000501616011542815,18.54656579442164,-0.7074137627312211
11.2026198808505,0.01266559643900778,18.53316119187794,-0.5930457015930415
11.85712504868911,0.02977638247635202,18.51688749815448,-0.6034622966636967
12.54986921948269,-0.001831678412966529,18.54626245678707,-0.7684444951787839
13.28308648001751,0.009025520696711019,18.53651129284678,-0.7483563518287184
14.05914144202507,0.007107398474726994,18.5371227703875,-0.7876217679948354
14.88053686801006,0.01095392968149806,18.53281366052594,-0.9029902986312095
15.74992174261191,0.004821353705333705,18.53877687280566,-0.9514814918218661
16.67009981552986,0.009696657188618625,18.53344312781375,-1.006906079375128
17.64403864356239,0.01898545990768162,18.52186973161057,-1.005594902452714
18.6748791609217,0.007026301714405659,18.53240534276141,-0.984019707159888
19.76594580868665,0.01900988345647249,18.52439663524957,-1.1246135188496
20.92075725606221,0.0248037232155363,18.51404191087165,-1.161314189261859
22.14303774802068,0.008387980971626175,18.53167213498427,-1.200820848043577
23.436729115921,0.01814722046181653,18.52295759016542,-1.449440781335028
24.80600348983997,0.03115471171580605,18.50576728433069,-1.437086422643631
26.25527675361243,0.004595236542559764,18.53306608501189,-1.598853756582855
27.78922278597281,0.005524711965705543,18.53042393056006,-1.651430285658464
29.41278853372508,0.003128685544284068,18.53262507875082,-1.78360052762514
31.13120996555226,0.01780007902322044,18.51678312469192,-1.864915151421698
32.95002895791605,0.01219442746692906,18.52158337336192,-1.980913387051473
34.87511116750276,0.007454860351993488,18.52385891351182,-1.984150308240544
36.91266494785499,0.01075102928194179,18.51972105201126,-2.216449435422589
39.06926137119375,0.01370789789472722,18.51599384950709,-2.258754766558582
41.35185542000135,0.005505448740223589,18.52154785181942,-2.434829440570724
43.76780841670799,0.003315364239520628,18.52352980921511,-2.486473527465773
46.3249117638163,0.01139735951704572,18.51225565472505,-2.719253832726096
49.03141207102686,0.01753813008307351,18.50502970980335,-2.865069039059911
51.8960377503974,0.01501164126485052,18.5042877866594,-3.056931255688397
54.92802716530586,0.004823596899894319,18.51345093963375,-3.239943546613972
58.13715842399698,0.00795074461028423,18.50852824603494,-3.35656626497115
61.53378091379528,0.009364953653313673,18.50398330432226,-3.592635331236878
65.12884867768241,0.02659009877197127,18.48324444066072,-3.88096454130789
68.93395574087819,0.01126204936552939,18.49702119615552,-4.014745311843214
72.96137350135093,0.0103387416965189,18.49272730912757,-4.253982309649174
77.22409030484302,0.03312516902243503,18.46561615618457,-4.508439161996336
81.73585333203927,0.01403282152127294,18.48062885721828,-4.660700622097693
86.51121293296302,0.01416256585780012,18.47522601027107,-4.956363369667613
91.56556955157842,0.005079684329994931,18.47894386301099,-5.268234482773863
96.91522339193011,0.01961301872066608,18.46120896353565,-5.48985031759635
102.5774269859912,0.003644117293823793,18.46557859342288,-6.028762931833882
108.5704408327505,-0.003221696018469336,18.46438781635256,-6.315172983907624
114.9135922879754,0.03091894827426909,18.42416547872664,-6.648073601110951
121.6273378945674,0.009523764513450418,18.43857431776436,-7.017461824119351
128.7333293545225,0.01570391419443253,18.42383267758742,-7.365931717257766
136.2544833552602,0.02845935091874058,18.39958959866599,-7.887868864958349
144.2150554755048,0.01294048797233482,18.39963570394107,-8.294446187328859
152.6407184090652,0.01183838834560257,18.39082989312482,-8.674938483521018
161.5586447587848,0.007346881367164648,18.37927987183445,-9.261511271019188
170.9975946676697,0.02181826692084332,18.35441289584913,-9.669612763242014
180.9880085698029,0.02964550793866878,18.32695234556753,-10.32780169855297
191.5621053601653,0.01508013568197654,18.32012399748396,-10.8959535806021
202.7539862999612,0.01432158977223133,18.30365864845315,-11.53849889212803
214.5997449925365,0.009030579873137167,18.28456780353964,-12.12127280170441
227.1375837845639,0.01117805963628029,18.25675036367369,-12.80025545489615
240.4079369678839,-0.008320366166406065,18.25136316531208,-13.42911239106593
254.4536011793301,0.01850726793715701,18.1893765857897,-14.28580122224085
269.3198734190672,0.01895030667842926,18.15694069266856,-15.07405851084789
285.0546971325567,0.02312646735542289,18.1202380366261,-15.83948539271158
301.7088168272581,0.03820930348687878,18.05925541949036,-16.77683406535582
319.3359417227003,0.01081431704889486,18.04542689206813,-17.46809403470306
337.9929189616926,0.01611845128300794,17.98507896310746,-18.5576384351325
357.7399169412834,-0.00360770975648046,17.95254827929544,-19.4524480350008
378.6406193546952,0.003013400608854222,17.88516306787553,-20.62086084308531
400.7624305700231,0.02469871373386838,17.80310784883605,-21.60122494275217
424.1766930080449,0.03441469093732773,17.72247924815684,-22.79273655183223
448.9589172201711,0.03359023923192774,17.64522272164539,-23.98074855427748
475.1890254085353,0.05385977131364443,17.53898716131408,-25.04534021891517
502.9516091735803,0.005498865487235815,17.48871398582918,-26.3605112406342
532.3362023203628,0.02044475570236417,17.37801611744173,-27.57578986843127
563.4375696033708,0.0302240625239299,17.26289573007831,-28.9986453287638
596.3560123410552,0.009495299204350644,17.15953478110753,-30.20663697318689
631.1976918856806,0.03289827950686407,17.01500120945959,-31.73175637234415
668.0749719916639,0.05596442419562926,16.85464166307979,-33.13877164916568
707.1067811865476,-0.007541166639733953,16.76594235150942,-34.43828308291859
748.4189963132453,-0.007156193038746086,16.60704753436764,-36.25038604872606
792.1448484804624,0.03401051392121279,16.39812593653183,-37.56551126554549
838.4253527304941,0.02636947545127101,16.22979580859368,-39.27389909998811
887.4097628100533,0.05071313052582081,16.01051844930632,-40.78516040919896
939.2560525107727,0.03292015664720983,15.82329315012457,-42.49235259537487
994.1314251316742,0.007671802535696016,15.62400101270299,-44.09810791605419
1052.212852706634,0.0008239222480170544,15.40927375532644,-45.82937611032306
1113.687646735833,0.00829853227553381,15.15597060663151,-47.31868895272271
1178.754062261777,0.02364877876552723,14.89084761564513,-49.07293381026524
1247.621937238045,0.01859592452562759,14.63354407142216,-50.73540330218708
1320.513369252708,0.05761069161423944,14.32999001384547,-52.46656936224178
1397.663431788814,0.01032943347817496,14.08794461305971,-54.16842176741798
1479.320932331926,0.03788081125465945,13.7589877501096,-55.802101381255
1565.749214769513,0.009835767928422633,13.48222389133108,-57.39416023740837
1657.227008669993,0.04343637671486213,13.13433079334046,-58.9782142527998
1754.049328180301,0.07183641954396007,12.76401948698433,-60.60882184581398
1856.528423440887,0.0307332252319283,12.47437025973954,-62.19265483555326
1964.994787586509,0.01966981156470594,12.14458406544299,-64.01121441594074
2079.798222580294,0.03100748818845498,11.77687849945023,-65.45610829562541
2201.308967318424,0.05813042634828178,11.38344206155277,-66.84229892470466
2329.918891643553,0.05406101450902358,11.023855326199,-68.35218295574849
2466.042760117587,0.04983950176569472,10.64898674839817,-69.71642921763979
2610.119569629524,0.04144804909107241,10.26447820811333,-71.45538454167635
2762.613965152073,0.07125304348925264,9.856191131030167,-72.57027699579812
2924.017738212866,0.03887383975882756,9.493885099509317,-73.95085028594298
3094.851412912785,0.03048080653638094,9.0970910943202,-75.71085066844397
3275.665924606298,0.06764291471651951,8.649105586041724,-76.74100810653881
3467.044396657504,0.08369995084212034,8.24599976791729,-78.11522677387006
3669.604021001906,0.09206483999450266,7.795546582812682,-79.66941172926997
3883.998048578666,0.08945046111899274,7.385359812474244,-81.12324169283366
4110.91789605249,0.09892707198204995,6.942402554661317,-82.1786553226367
4351.095375619197,0.1231493929295783,6.494022330716397,-83.52456130116417
4605.305055086172,0.09421891659108658,6.070295226374815,-85.01979401045664
4874.36675583883,0.1324054641026417,5.638369240533045,-86.22547568459498
5159.148196748966,0.1626976125573332,5.173801751979728,-87.53246757258034
5460.567792551683,0.1370011634830571,4.761662658168201,-88.95526283019029
5779.597615715405,0.1264923886590918,4.314284884811847,-90.22531915741017
6117.266531357141,0.1709049104150681,3.840803505000193,-91.45930461167637
6474.663515312955,0.1678813589962468,3.369122814863521,-93.00486833569462
6852.941166064297,0.1532667877780466,2.962486748419112,-94.18207519099671
7253.319421846229,0.1668492752902154,2.494444404049963,-95.82608241053322
7677.08949492507,0.1180903084673325,2.036212771369747,-97.16525879560419
8125.618035733363,0.1597358089512753,1.549787678274061,-98.65337984627334
8600.351540291613,0.1736059954651648,1.076550862569162,-99.91239503510621
9102.821015130405,0.1610104187526517,0.6478397232270438,-101.5882979965692
9634.646914757404,0.08694535836886398,0.2325721850285792,-102.9677577601029
10197.54436759236,0.1502299243329758,-0.3191169599069803,-104.9214822490824
10793.32870722362,0.1588637248307,-0.7899672295304643,-106.5996198360911
11423.92132682452,0.116621492844799,-1.217165730602833,-108.6394568436023
12091.35587560979,0.1746682353126086,-1.774410893190199,-109.9068990703846
12797.78481731564,0.1572035339587278,-2.24364058999398,-112.6617467877721
13545.48637185448,0.1559096639263051,-2.755703958983002,-114.3768763480274
14336.87186253071,0.1012230188077521,-3.189053284231557,-116.0011204550825
15174.49349251265,0.1436607665968275,-3.698612503724333,-118.1376101561745
16061.05257563926,0.1495748652805413,-3.935884646719874,-122.3179421371431
16999.40824810587,0.1332054657752236,-3.930676976807685,-126.5610690517667
17992.58668912415,0.08372805512546598,-5.184198332791783,-125.1768766961681
19043.7908802925,0.1392590930164453,-5.51543972996794,-127.7680102921951
20156.41093515083,0.08959598157642445,-6.039297379205514,-129.3353524779077
21334.03503223242,0.09766400463120932,-6.578879127388824,-132.9872602557024
22580.46098687132,0.1047113051172896,-6.593328902815863,-137.4781017024925
23899.7084990848,0.08132405454553225,-9.440435016524441,-90.00655299842168
25296.0321170294,0.06311416938644535,-2.567530884014703,-121.3086416312132
26773.9349578379,0.1633143911944469,-5.916149822428841,-158.4937205074591
28338.18323008663,0.1658847006660785,-8.637380539815512,-144.1603914056505
29993.82160472731,0.08057032200394344,-9.476623396463435,-153.0448549756141
31746.18948405528,0.1360583186696389,-9.898528265447965,-157.5121866802807
33600.93822118018,0.08781576460747648,-11.07427602062481,-169.6631365478648
35564.04934553248,0.05339027066406088,-11.03468433059474,-170.4740095286965
37641.85385318225,0.07574880150406224,-11.27475964862993,-174.1968967707595
39841.05262418107,0.1453593667731208,-12.37963925142682,-178.0308268691153
42168.73803277285,0.147520637739541,-11.54289978266373,178.3551898990983
44632.41682016619,0.01984793555170749,-13.66466385611569,100.5818491907797
47240.03430363178,0.1016073928486454,-4.961835341362503,97.18327012962595
50000,0.09257803242588022,-4.273598595178096,-22.69258660953231
