#Digilent WaveForms Network Analyzer - Bode
#Device Name: Discovery2
#Serial Number: SN:210321A18A20
#Date Time: 2024-04-19 10:56:24.227
#Start: 100 Hz
#Stop: 50000 Hz
#Steps: 151
#Wavegen: Wavegen C1
#Amplification: 1 X
#Settle: 10 ms
#MinPeriods: 16 
#Channel: Channel 1
#Range: 60.9019 V
#Offset: 0.00253441 V
#Relative: no
#Channel: Channel 2
#Range: 59.9969 V
#Offset: 0.00132811 V
#Relative: yes

Frequency (Hz),Channel 1 Magnitude (dB),Channel 2 Magnitude (dB),Channel 2 Phase (deg)
100.0000000000001,-36.95895631014479,36.28192873300749,-91.51078256521218
104.2300949424216,-37.18371185023329,36.54467813998082,-86.17591206110319
108.6391269170621,-35.49538505838717,34.81511794650862,-97.83818851519884
113.2346651302716,-34.39850347508582,33.73866530752568,-87.9452245993744
118.0245989730151,-36.07281026127423,35.40816076812263,-91.24750969703153
123.0171515649861,-34.69485157189393,34.04455673046635,-85.82099618605855
128.2208938716475,-33.69910103057038,33.01164727475125,-101.3565507734808
133.6447594184397,-34.91223460684077,34.24981283095464,-92.62851379847463
139.2980596274105,-33.63040070197847,32.98129376363543,-93.46647582708113
145.1904998026008,-32.85413796789016,32.22123085334771,-86.97143361144754
151.3321957916271,-32.66867329966308,31.99813218367744,-99.34175863782875
157.7336913520643,-31.87734227275681,31.25768307913571,-81.09423351719663
164.4059762524425,-31.10116134159702,30.46530479017908,-87.22994525472949
171.360505138936,-31.27769947572667,30.64129115025252,-88.83824437818845
178.609217200126,-30.94488513539369,30.31910736687002,-99.28118466229526
186.1645566636072,-30.11368829253794,29.47192423802754,-99.51815227214929
194.0394941596158,-31.21735836808674,30.59406498253119,-92.58634086882708
202.247548988362,-30.57026886236193,29.94400922126171,-88.83089596998101
210.8028123292901,-29.63343803236415,29.04996934313675,-86.08126630199473
219.7199714321139,-28.83852926438948,28.20876638599152,-96.6979830731285
229.0143348311534,-30.75344404102625,30.13861156910452,-97.74742910481105
238.7018586262665,-28.80603799147252,28.20057045298037,-94.0883970510219
248.7991738754823,-28.70838517698657,28.03139808614157,-99.94834809795617
259.3236151463755,-28.01646919990373,27.39522683497461,-91.16191347423018
270.2932502751869,-28.20476470637784,27.59500268746679,-93.08088101967857
281.7269113847843,-27.11284162003579,26.50537589332226,-97.11278202075283
293.6442272147124,-27.65817300681947,27.05887592541596,-93.7791789829601
306.0656568188346,-26.35339610785212,25.75144912769849,-94.12540169805456
319.0125246884172,-27.3360318800337,26.69298601581998,-101.3348264031476
332.5070573609534,-26.01848263585952,25.42950950885063,-98.79622815487249
346.5724215775736,-25.76201605391197,25.17034868043274,-97.70007899228028
361.2327640545542,-25.09622087022079,24.51442275162137,-95.54271083056544
376.5132529371953,-24.80884495579811,24.21433738605504,-96.55023314948221
392.4401210072382,-24.59293402393034,24.03205256882205,-99.58033911236771
409.0407107179982,-24.16821345729138,23.60481392091572,-97.45522849314015
426.3435211345256,-23.70748763312845,23.17606947250681,-96.04885970698265
444.3782568593789,-23.13422719459597,22.57190857053706,-99.26582143975175
463.1758790280082,-23.04329694501509,22.48142454562289,-96.76497647479857
482.7686584612883,-22.38806353271779,21.8432235568582,-99.35482127376712
503.1902310664553,-22.36969963038375,21.83289303364099,-98.64500280598298
524.4756555815562,-21.66485608050284,21.14829213238084,-100.7013489822215
546.6614737625438,-21.4344545892252,20.93121841825164,-99.1341256964412
569.7857731163404,-21.04607909334121,20.52161694179814,-100.7194102676885
593.8882522875714,-20.69510543211607,20.20117384528679,-102.8121064533292
619.0102892112237,-20.20679962943469,19.72898575272761,-101.5266133020636
645.1950121482167,-19.94400388544945,19.48233972751832,-100.1726600287742
672.4873737258538,-19.43771242254489,18.89681639278241,-107.9394971457268
700.9342281102546,-19.15804871132407,18.75927823844084,-102.9837377780333
730.584411443248,-18.62964877297269,18.22946671719547,-103.2093750025204
761.4888256818282,-18.03921892198521,17.66220546708974,-103.6583610747366
793.7005259841002,-17.77026414177587,17.42050985043066,-105.0847505154137
827.2748117917272,-17.54060270143986,17.18822487066508,-105.7262800160502
862.2693217652554,-17.21371690319959,16.9061805867554,-106.537457009418
898.7441327352996,-16.77762201095472,16.51711920002269,-108.8149498782059
936.7618628394459,-16.33705938865156,16.0782243662487,-108.5938196298052
976.3877790219507,-15.71564086862855,15.50045215117274,-108.91187073291
1017.68990908078,-15.55107887981259,15.40645241712376,-109.28188600813
1060.73915845434,-14.78554844228514,14.637803300645,-110.654756440448
1105.609431948401,-14.22987068398878,14.12617122150268,-110.9547924331985
1152.377760612186,-14.03066174308432,14.00757513748382,-112.1832771856706
1201.124433981432,-13.53637920168675,13.53530487768897,-112.3093821300922
1251.93313791547,-13.02282742709348,13.05232825170426,-113.8477663914092
1304.891098264931,-12.37254109115865,12.48699440370023,-115.3783938639979
1360.089230616743,-12.07475648572794,12.24696165566611,-114.8558988042278
1417.622296373483,-11.50217718530365,11.73275376257596,-116.8059923049101
1477.589065435017,-11.00151944191055,11.30374103974289,-117.1029646904281
1540.092485761756,-10.47037000150041,10.82084871269996,-119.1881298898704
1605.239860110578,-9.884833478249051,10.36820232753457,-118.9634158382274
1673.14303024685,-9.465005725653526,10.02786332663509,-120.7410645219236
1743.918568948799,-8.649968038641923,9.272321161819651,-120.3940665544765
1817.687980133853,-8.255279786310973,8.996394275397146,-123.6273398264354
1894.577907450499,-7.67094849038929,8.600627790824987,-123.3057020080801
1974.720351693797,-7.018535180578427,8.044128759668931,-124.4873398490627
2058.252897417765,-6.382557606405328,7.522683594042492,-125.3708345914524
2145.318949133678,-5.700697222229032,6.992430296237284,-126.3353122091632
2236.067977499791,-5.194347581743596,6.630996030151197,-127.3287632877731
2330.655775925117,-4.565802821706322,6.153738014168634,-128.2621322716361
2429.244728027779,-3.82920511027085,5.563266083041444,-129.1470769220525
2532.004086407124,-3.151356219699894,5.050862048898662,-129.8489369124349
2639.110263208136,-2.441595534331119,4.48939207984136,-131.2562379414236
2750.747132977031,-1.721199363765355,3.970759710078655,-132.070823895903
2867.106348327898,-1.082656052263178,3.457817003492702,-132.5523596653995
2988.38766896236,-0.355672404622947,2.91695238887583,-134.0422821756216
3114.799304607086,0.2972317081896316,2.351082420136133,-134.531471450207
3246.558272457852,0.9411808381314025,1.854272657319873,-135.7322860598493
3383.890769743857,1.510228209075896,1.318927820922856,-136.5194279043729
3527.032562051862,2.082294868367653,0.7440194754855569,-137.443373915582
3676.229388076776,2.565723002884308,0.188964058383403,-138.0557352130855
3831.737381493625,3.006339089511456,-0.3581332042846963,-139.1083706171135
3993.823510675062,3.337724351899225,-0.9339897870264344,-139.8266542174605
4162.766037009368,3.585819725299757,-1.484942223269562,-140.69129395071
4338.854992605741,3.743315824484175,-1.997420528489001,-141.4189263911537
4522.392678206958,3.851493665019918,-2.556536671307594,-142.2443442180039
4713.694182164233,3.909063913537723,-3.139647432910107,-143.0941228924092
4913.087921365179,3.849049619674027,-3.664543614481496,-144.2006494855282
5120.916205043567,3.70158644965412,-4.176055002586267,-144.367914647687
5337.53582243876,3.670333026589803,-4.74515839670315,-145.759631131451
5563.318655313676,3.502976458343762,-5.299379738407955,-146.2500216356017
5798.652316382892,3.330963906129947,-5.878441596468475,-147.0301552329127
6043.940814746816,3.157762604138234,-6.376858701463213,-148.1488179060422
6299.605249474367,2.963814295681146,-6.90104753285416,-148.8590741645545
6566.084532524903,2.807769967585132,-7.495194112280112,-149.8017403808296
6843.836142250362,2.649421350488042,-8.113192820352214,-150.0674692763116
7133.336908771306,2.463101836341614,-8.504734309129455,-151.5188846855571
7435.083832575129,2.302190358200388,-9.049904817943101,-152.1661003578665
7749.594937741685,2.154318439122667,-9.627809998320775,-153.395897337631
8077.410161261253,2.005562476526071,-10.20285108498916,-154.6854219682785
8419.092279971408,1.835190484513155,-10.67810830896226,-154.8258317146579
8775.227876704274,1.717756230319631,-11.18148683274742,-156.6823204284659
9146.428347302706,1.598701581236717,-11.63002401504087,-155.9827792571334
9533.33095023416,1.489712273466568,-12.06413203711052,-158.7297717574761
9936.599900604322,1.389685469362633,-12.69959328692418,-159.6273467728446
10356.92751044845,1.275010474739791,-13.06156689866985,-160.6053703349529
10795.03537725818,1.167238884777651,-13.54038630888757,-162.9268098609321
11251.6756227842,1.031870063002333,-14.18853269004842,-163.956023061815
11727.63218424127,0.9438027770815203,-14.79733312234139,-162.6548393283439
12223.72216013265,0.8633038635037398,-15.16540867164606,-166.8389103103842
12740.79721300408,0.6976527099590735,-15.71318073772355,-166.5243240771211
13279.74503153555,0.7558814029465194,-15.99306212858136,-168.9811938961482
13841.490854481,0.6697875318809798,-16.68424424449644,-172.3749004319523
14426.99905907214,0.5374019562727587,-17.46325364022667,-172.6513147016134
15037.27481661315,0.5198891352607728,-17.10092024286184,-174.6219269735068
15673.36581810872,0.4607682278766461,-18.13813044653071,-174.7209197084874
16336.36407288775,0.3459850967134445,-18.09640794952351,-177.1842366451001
17027.40778331055,0.3531420032859525,-18.80065826749057,-177.2667983759634
17747.68329877786,0.2171546011900463,-18.693274223346,-182.2834687461754
18498.42715239644,0.1405612283938725,-18.90399152580314,-187.1282604193903
19280.92818379749,0.1697515902648636,-19.90298174823984,-188.5371697912116
20096.52975175224,0.02519095306220556,-20.90345512335552,-191.7239184553739
20946.63204038333,0.05972590541555849,-20.55496174558531,-194.6222514217555
21832.69446293124,0.006848212255635675,-21.68263404127792,-199.150175617622
22756.23816720202,-0.07816404818076335,-22.78868874014296,-197.2235503274919
23718.84864699823,-0.3850198780115255,-24.29467036051033,-225.6052166185309
24722.17846401552,0.4538699963267384,-16.76806156373102,-201.0040614532128
25767.95008487826,-0.2060097681151565,-21.03860015443828,-147.271585133525
26857.95883818439,-0.3710170738489241,-21.25867932822122,-224.499595499567
27994.07599663607,-0.3159342118544969,-22.47485522913572,-224.8364433070781
29178.25198954741,-0.2858239264228402,-23.79918557552158,-215.3759840648204
30412.51975124426,-0.2844938642760824,-22.8369905789439,-220.7451793000011
31698.99821110458,-0.3478486334196489,-24.808667970332,-229.9779755959001
33039.89593123081,-0.4840218208481983,-22.72234984417113,-226.9268485077668
34437.51489799911,-0.4837746612897015,-22.72592044321022,-237.7048693753574
35894.25447399503,-0.5243812832783215,-23.31188146815246,-240.2646444153919
37412.61551711941,-0.6261570885124215,-24.83444750727298,-246.4203802014461
38995.20467393667,-0.6384559893648211,-23.24683614056326,-255.7002934763609
40644.73885463578,-2.606033061715288,-11.85204007300176,-14.95087684849002
42364.04989728618,-1.439210962312932,-9.787776827379378,-273.5256023410563
44156.08942939618,-3.998348905845993,6.736676188878516,-137.5273445980903
46023.93393512021,8.802066566956599,1.310890745528073,-196.5632975035997
47970.79003681312,11.45988698979382,0.1573111297018716,-193.3095308079919
50000,11.07335472966766,0.5674263921371885,-193.7595140366138
