#Digilent WaveForms Network Analyzer - Bode
#Device Name: Discovery2NI
#Serial Number: SN:210321ABE56F
#Date Time: 2024-04-23 13:20:55.399
#Start: 100 Hz
#Stop: 50000 Hz
#Steps: 151
#Wavegen: Wavegen C1
#Amplification: 1 X
#Settle: 10 ms
#MinPeriods: 16 
#Channel: Channel 1
#Range: 61.0653 V
#Offset: -0.00252791 V
#Relative: no
#Channel: Channel 2
#Range: 61.3272 V
#Offset: 0.00324317 V
#Relative: yes

Frequency (Hz),Channel 1 Magnitude (dB),Channel 2 Magnitude (dB),Channel 2 Phase (deg)
100.0000000000001,-37.22975219881859,36.66587353495298,-84.10757599646513
104.2300949424216,-36.99090274276099,36.41584680036199,-97.83910919732995
108.6391269170621,-36.40430102055958,35.82763642504788,-86.01784029687519
113.2346651302716,-35.21100170646744,34.64291146048717,-92.18325914932187
118.0245989730151,-34.48971526615346,33.9357650015151,-84.70544307930814
123.0171515649861,-34.68692262227479,34.1225647100099,-95.60839279226226
128.2208938716475,-34.90027439626462,34.34681744966162,-92.78248203361132
133.6447594184397,-34.34246006060148,33.81482563307469,-87.69460560256925
139.2980596274105,-33.34804619187413,32.78958256268912,-88.58216914168031
145.1904998026008,-33.83155490869585,33.27735515615647,-91.65441549023802
151.3321957916271,-32.84098631169479,32.29461393703951,-95.73492395732295
157.7336913520643,-32.8911559370523,32.33770038161961,-95.26816193257633
164.4059762524425,-32.39269270173098,31.85241682864017,-87.00481864693126
171.360505138936,-31.6470003873841,31.09690401329743,-93.35733252006068
178.609217200126,-31.78306591363402,31.2475103728223,-90.2165115043158
186.1645566636072,-31.59285899950607,31.05693233889626,-88.09415374318246
194.0394941596158,-30.06607071772816,29.53519101877,-90.10775306079076
202.247548988362,-30.151933282076,29.64477702636677,-91.33447157762947
210.8028123292901,-30.22389051230692,29.69563370501105,-91.39549016867558
219.7199714321139,-30.00466845909203,29.47336822787194,-92.83359089390987
229.0143348311534,-29.64578206257621,29.11988964688377,-94.57620990199358
238.7018586262665,-29.94431683910079,29.41656770962144,-92.4541276693586
248.7991738754823,-28.31790440508679,27.78786988276197,-94.84624995243581
259.3236151463755,-28.26024900108883,27.73123403039266,-96.17836110975918
270.2932502751869,-28.20220904537761,27.68878947142927,-92.73447288229522
281.7269113847843,-27.37173634251567,26.87322167185101,-91.65449161207883
293.6442272147124,-27.23026195342262,26.73043023383876,-94.85592671613894
306.0656568188346,-27.04580003128757,26.52048994146257,-96.21491628729439
319.0125246884172,-25.99755217928757,25.5147963949547,-96.91714381176814
332.5070573609534,-25.80614203064311,25.30852741614986,-96.2958572586987
346.5724215775736,-25.79144445033595,25.2919130819858,-96.81352083144452
361.2327640545542,-25.53735839615057,25.0466756008359,-91.56882503444102
376.5132529371953,-25.08887661911693,24.58904764805624,-97.01640560157959
392.4401210072382,-24.32654967208066,23.85487946932223,-95.01641551073766
409.0407107179982,-24.40691604082477,23.94681201661458,-99.26331886233089
426.3435211345256,-23.99799330127417,23.53411320509415,-100.3516697766633
444.3782568593789,-23.4463189589581,22.97708760658903,-100.8862453419035
463.1758790280082,-23.04614116186853,22.6075956163852,-98.08907258271782
482.7686584612883,-23.04893547097998,22.60467521000583,-99.27161120321651
503.1902310664553,-22.66246203259291,22.23309145547393,-98.77280948520107
524.4756555815562,-22.05451502019909,21.64618043137929,-100.201090490954
546.6614737625438,-21.41137466117069,21.00514376485279,-101.8184306701702
569.7857731163404,-21.39584822130544,20.98918526026427,-102.2166477414764
593.8882522875714,-20.61292990447868,20.23032590076408,-104.8799748918103
619.0102892112237,-20.45943691378029,20.09879991651423,-104.7039075892116
645.1950121482167,-19.91958886101395,19.54913622422669,-103.8906045301709
672.4873737258538,-19.70229129010581,19.36919160022475,-104.2109621026489
700.9342281102546,-19.38154353248979,19.08478744579238,-105.4120276503358
730.584411443248,-18.78504579574863,18.48138976430756,-105.3906284190754
761.4888256818282,-18.43027023406468,18.14949909574858,-105.8183831409493
793.7005259841002,-18.05387836171142,17.78698176005743,-107.335409767858
827.2748117917272,-17.43838106828999,17.19678344794832,-111.2508196903188
862.2693217652554,-17.30181960725082,17.07329428915641,-106.623127095109
898.7441327352996,-16.83173353297791,16.65085682914535,-109.6490720508241
936.7618628394459,-16.27973628352443,16.12726662926912,-109.4027586949504
976.3877790219507,-15.74855278525268,15.62191508604214,-110.3388954421205
1017.68990908078,-15.50042943975166,15.40989026395416,-111.4324554632999
1060.73915845434,-14.90960012885596,14.86836091795442,-111.1608585658127
1105.609431948401,-14.52460514015805,14.54242408422807,-111.909655391301
1152.377760612186,-13.9053394613104,13.96617153472802,-113.1997926078719
1201.124433981432,-13.31477404206187,13.37645498583563,-115.0436323675678
1251.93313791547,-13.06239257350238,13.21686368829985,-117.1201457900782
1304.891098264931,-12.51761889871762,12.74736149250675,-116.4427256830725
1360.089230616743,-12.0276434849509,12.2813473910151,-118.6348299530185
1417.622296373483,-11.48372592554495,11.79515119918167,-119.5288655939919
1477.589065435017,-10.97968521104738,11.42254538636707,-119.9190146091369
1540.092485761756,-10.42534474575069,10.96156009532858,-120.377106690654
1605.239860110578,-9.820394833559456,10.37184296718909,-122.0024481915617
1673.14303024685,-9.360132130094666,10.08168442354512,-123.2581697265188
1743.918568948799,-8.638195868204434,9.438593973464107,-123.4041602076616
1817.687980133853,-8.259540702028584,9.180292706329293,-124.4374784575209
1894.577907450499,-7.580334093258446,8.62843062247512,-125.3894715054827
1974.720351693797,-6.895764953324557,8.056413414677243,-127.0367879570853
2058.252897417765,-6.271898051901404,7.568377052612974,-127.7573778101739
2145.318949133678,-5.555967512599144,7.009091523237714,-129.2962992397951
2236.067977499791,-4.958968818363979,6.56651730931615,-129.6502298852992
2330.655775925117,-4.268656257491237,6.037216906594796,-130.5033363158168
2429.244728027779,-3.622093232576295,5.536058779970594,-131.6755670745315
2532.004086407124,-2.8669696298216,4.953287666872882,-132.4511373049036
2639.110263208136,-2.102125586808322,4.429355231724864,-134.0271826279381
2750.747132977031,-1.485607345861296,3.947817913300026,-134.2927614827153
2867.106348327898,-0.7688114825262462,3.378361442752943,-135.123912070483
2988.38766896236,-0.06397607525244603,2.832209946813065,-136.4531108660413
3114.799304607086,0.6046820315966897,2.32305725066442,-137.5988307319944
3246.558272457852,1.291510275651921,1.735962739889086,-138.0625587019036
3383.890769743857,1.931975639234056,1.180894080472332,-138.999381130109
3527.032562051862,2.488958012101486,0.6374309952038827,-139.966258098834
3676.229388076776,2.976820013631276,0.09267525728189557,-140.7998418308581
3831.737381493625,3.420677563348055,-0.4753676703338027,-141.50638012078
3993.823510675062,3.748990623042888,-1.023430131280717,-142.263025099152
4162.766037009368,4.019665965577008,-1.575054250557133,-143.4902343561829
4338.854992605741,4.22871273266547,-2.118992288050496,-144.1398805791753
4522.392678206958,4.295245662527356,-2.686246010736531,-144.9278045271101
4713.694182164233,4.30165990711486,-3.198812716600609,-145.7520131753957
4913.087921365179,4.296387769691887,-3.719690908476164,-146.3820708334873
5120.916205043567,4.182608772791214,-4.266612575134364,-147.2146553828775
5337.53582243876,4.127681144523975,-4.863956248422904,-148.0663269406104
5563.318655313676,3.935924484513815,-5.387302716827036,-149.0491210258654
5798.652316382892,3.78510337206888,-5.86664430673852,-149.9368277930414
6043.940814746816,3.579633947640059,-6.522777973516734,-149.9064302408261
6299.605249474367,3.467049382140961,-7.063648489644247,-151.4034391937163
6566.084532524903,3.245650378007086,-7.570107326421939,-151.7302729168791
6843.836142250362,3.068641087574641,-8.079529868758312,-153.2415934225898
7133.336908771306,2.87235648580495,-8.423170015254097,-153.6561497226714
7435.083832575129,2.694425012245842,-9.089925505737552,-154.3349025259595
7749.594937741685,2.512544948523039,-9.768038369048234,-155.3899987130811
8077.410161261253,2.384164987345035,-10.06572167433507,-156.4524219962531
8419.092279971408,2.230402340203288,-10.62224650228871,-157.0396990564223
8775.227876704274,2.124107306550977,-11.1913256879939,-159.1644521551813
9146.428347302706,2.008627088312079,-11.58239335960109,-158.9927159050481
9533.33095023416,1.892561201874327,-11.91015479987296,-161.0293044210361
9936.599900604322,1.753292022623628,-12.51687197199677,-161.5493601905587
10356.92751044845,1.593314460871811,-13.15083146907177,-162.2659928467203
10795.03537725818,1.610850708121348,-13.58353486626959,-164.0042714761876
11251.6756227842,1.422951310273785,-13.81846310911086,-165.1683663435136
11727.63218424127,1.383045336729794,-14.38908753749098,-165.8025272351908
12223.72216013265,1.29844698938712,-14.46827013324916,-167.044393279604
12740.79721300408,1.153811226999646,-15.38583772912094,-169.752208243302
13279.74503153555,1.107902440417687,-15.86338519182466,-169.7885532275811
13841.490854481,1.062943073518165,-15.76570214696663,-172.051837011487
14426.99905907214,0.9242985098897905,-16.73618602682805,-173.564278441885
15037.27481661315,0.9144892525582617,-16.86666550022653,-174.036435011569
15673.36581810872,0.8782723069507831,-17.27775253034372,-176.6896465279757
16336.36407288775,0.7564503080591568,-17.20411631144857,-180.4723035173149
17027.40778331055,0.7193008720184003,-17.3349707003093,-179.09678448791
17747.68329877786,0.6690673822752423,-18.07820022709631,-184.7651759967831
18498.42715239644,0.6233724323330667,-18.56019071433499,-183.2430086663458
19280.92818379749,0.5951837128238523,-19.46353507901174,-186.1302298332232
20096.52975175224,0.5162961083392866,-19.70355527171819,-189.224049380439
20946.63204038333,0.5114487122490412,-19.60628629368149,-189.4129387401002
21832.69446293124,0.4063378125094527,-20.6099165987414,-190.273997106738
22756.23816720202,0.3894107294392832,-21.0142087871425,-191.9865112194604
23718.84864699823,0.5749818322215082,-18.88471740414946,-200.934323005525
24722.17846401552,0.4904771585658197,-19.58638396743457,-158.03145601065
25767.95008487826,0.8054190714401266,-17.29119857707368,-181.8858130584528
26857.95883818439,0.4470612787602913,-20.1618015141986,-197.0167889036361
27994.07599663607,0.2109887589799216,-20.48996426086135,-211.5686511261132
29178.25198954741,0.1164162173767859,-22.2731017874875,-210.5088160241845
30412.51975124426,0.09019809469152194,-22.26356689539426,-216.8386410917543
31698.99821110458,0.04801434027414023,-22.59896759385137,-214.1078289919565
33039.89593123081,-0.04916293615820747,-22.72530498879892,-221.8906482821527
34437.51489799911,-0.0851917820614307,-22.95014433490206,-218.6438652566076
35894.25447399503,-0.2192204276874327,-23.33754878597417,-222.1257526428869
37412.61551711941,-0.1231249395352199,-23.5381589398048,-234.4807039870704
38995.20467393667,-0.1007572305262486,-23.55981888290408,-237.9080650600296
40644.73885463578,0.2577366562668479,-11.43960059334236,-241.5806657521452
42364.04989728618,-0.3690564460861514,-10.79624763990772,-256.2070074459232
44156.08942939618,-0.5237177191259492,3.085803142719715,-136.4679368762357
46023.93393512021,7.544781316470624,2.440933243046955,-168.9482026249326
47970.79003681312,12.23390796290924,-0.6422716929340716,-166.7197013895783
50000,13.55385991993578,-1.889294518571581,-181.9145070319991
